
T1C3C 000:051 SEGGER J-Link V6.10i Log File (0001ms, 0039ms total)
T1C3C 000:051 DLL Compiled: Oct 25 2016 19:31:51 (0001ms, 0039ms total)
T1C3C 000:051 Logging started @ 2017-08-22 23:08 (0001ms, 0039ms total)
T1C3C 000:052 JLINK_SetWarnOutHandler(...) (0000ms, 0039ms total)
T1C3C 000:052 JLINK_OpenEx(...)
Firmware: J-Link ARM-OB STM32 compiled Aug 22 2012 19:52:04
Hardware: V7.00
S/N: 20160826
Feature(s): RDI,FlashDL,FlashBP,JFlash,GDBFullWEBSRV Webserver running on local port 19080 (0029ms, 0068ms total)
T1C3C 000:052   returns O.K. (0029ms, 0068ms total)
T1C3C 000:081 JLINK_SetErrorOutHandler(...) (0000ms, 0068ms total)
T1C3C 000:081 JLINK_ExecCommand("ProjectFile = "E:\GitHub\Pacey_Project\Hal_STM32_Cleaner\Project\JLinkSettings.ini"", ...).   returns 0x00 (0122ms, 0190ms total)
T1C3C 000:204 JLINK_ExecCommand("Device = STM32F103ZE", ...). Device "STM32F103ZE" selected.  returns 0x00 (0000ms, 0190ms total)
T1C3C 000:204 JLINK_ExecCommand("DisableConnectionTimeout", ...).   returns 0x01 (0000ms, 0190ms total)
T1C3C 000:204 JLINK_GetHardwareVersion()  returns 0x11170 (0000ms, 0190ms total)
T1C3C 000:204 JLINK_GetDLLVersion()  returns 61009 (0000ms, 0190ms total)
T1C3C 000:204 JLINK_GetFirmwareString(...) (0000ms, 0190ms total)
T1C3C 000:204 JLINK_GetDLLVersion()  returns 61009 (0000ms, 0190ms total)
T1C3C 000:204 JLINK_GetCompileDateTime() (0000ms, 0190ms total)
T1C3C 000:204 JLINK_GetFirmwareString(...) (0000ms, 0190ms total)
T1C3C 000:205 JLINK_GetHardwareVersion()  returns 0x11170 (0000ms, 0191ms total)
T1C3C 000:205 JLINK_TIF_Select(JLINKARM_TIF_SWD)  returns 0x00 (0000ms, 0191ms total)
T1C3C 000:205 JLINK_SetSpeed(10000) (0000ms, 0191ms total)
T1C3C 000:205 JLINK_GetId() >0x108 TIF>Found SWD-DP with ID 0x1BA01477 >0x0D TIF> >0x28 TIF> >0x0D TIF> >0x28 TIF> >0x0D TIF> >0x28 TIF> >0x0D TIF> >0x28 TIF> >0x0D TIF> >0x21 TIF> >0x0D TIF> >0x28 TIF> >0x0D TIF> >0x28 TIF> >0x0D TIF> >0x28 TIF> >0x0D TIF> >0x21 TIF> >0x0D TIF> >0x21 TIF> >0x0D TIF> >0x28 TIF> >0x0D TIF> >0x21 TIF> >0x0D TIF> >0x21 TIF> >0x0D TIF> >0x28 TIF> >0x0D TIF> >0x21 TIF> >0x0D TIF> >0x21 TIF> >0x0D TIF> >0x28 TIF> >0x0D TIF> >0x21 TIF> >0x0D TIF> >0x21 TIF> >0x0D TIF>
 >0x28 TIF> >0x0D TIF> >0x21 TIF> >0x0D TIF> >0x21 TIF> >0x0D TIF> >0x28 TIF> >0x0D TIF> >0x21 TIF> >0x0D TIF> >0x21 TIF> >0x0D TIF> >0x28 TIF> >0x0D TIF> >0x21 TIF> >0x0D TIF> >0x21 TIF> >0x108 TIF>Found SWD-DP with ID 0x1BA01477 >0x0D TIF> >0x28 TIF> >0x0D TIF> >0x28 TIF> >0x0D TIF> >0x28 TIF> >0x0D TIF> >0x28 TIF> >0x0D TIF> >0x21 TIF> >0x0D TIF> >0x28 TIF> >0x0D TIF> >0x28 TIF> >0x0D TIF> >0x21 TIF> >0x0D TIF> >0x21 TIF> >0x0D TIF> >0x21 TIF>AP-IDR: 0x14770011, Type: AHB-AP >0x0D TIF> >0x28 TIF>
 >0x0D TIF> >0x28 TIF> >0x0D TIF> >0x28 TIF> >0x0D TIF> >0x21 TIF> >0x0D TIF> >0x21 TIF> >0x0D TIF> >0x28 TIF> >0x0D TIF> >0x21 TIF> >0x0D TIF> >0x21 TIF>Found Cortex-M3 r1p1, Little endian. -- CPU_ReadMem(4 bytes @ 0xE000EDF0) -- CPU_WriteMem(4 bytes @ 0xE000EDF0) -- CPU_ReadMem(4 bytes @ 0xE0002000)FPUnit: 6 code (BP) slots and 2 literal slots -- CPU_ReadMem(4 bytes @ 0xE000EDFC) -- CPU_WriteMem(4 bytes @ 0xE000EDFC) -- CPU_ReadMem(4 bytes @ 0xE0001000) -- CPU_WriteMem(4 bytes @ 0xE0001000)
 -- CPU_ReadMem(4 bytes @ 0xE000ED88) -- CPU_WriteMem(4 bytes @ 0xE000ED88) -- CPU_ReadMem(4 bytes @ 0xE000ED88) -- CPU_WriteMem(4 bytes @ 0xE000ED88)CoreSight components:ROMTbl 0 @ E00FF000 -- CPU_ReadMem(16 bytes @ 0xE00FF000) -- CPU_ReadMem(16 bytes @ 0xE000EFF0) -- CPU_ReadMem(16 bytes @ 0xE000EFE0)ROMTbl 0 [0]: FFF0F000, CID: B105E00D, PID: 001BB000 SCS -- CPU_ReadMem(16 bytes @ 0xE0001FF0) -- CPU_ReadMem(16 bytes @ 0xE0001FE0)ROMTbl 0 [1]: FFF02000, CID: B105E00D, PID: 001BB002 DWT
 -- CPU_ReadMem(16 bytes @ 0xE0002FF0) -- CPU_ReadMem(16 bytes @ 0xE0002FE0)ROMTbl 0 [2]: FFF03000, CID: B105E00D, PID: 000BB003 FPB -- CPU_ReadMem(16 bytes @ 0xE0000FF0) -- CPU_ReadMem(16 bytes @ 0xE0000FE0)ROMTbl 0 [3]: FFF01000, CID: B105E00D, PID: 001BB001 ITM -- CPU_ReadMem(16 bytes @ 0xE00FF010) -- CPU_ReadMem(16 bytes @ 0xE0040FF0) -- CPU_ReadMem(16 bytes @ 0xE0040FE0)ROMTbl 0 [4]: FFF41000, CID: B105900D, PID: 001BB923 TPIU-Lite -- CPU_ReadMem(16 bytes @ 0xE0041FF0)
 -- CPU_ReadMem(16 bytes @ 0xE0041FE0)ROMTbl 0 [5]: FFF42000, CID: B105900D, PID: 101BB924 ETM-M3 >0x0D TIF> >0x21 TIF>  returns 0x1BA01477 (0039ms, 0230ms total)
T1C3C 000:245 JLINK_GetDLLVersion()  returns 61009 (0000ms, 0230ms total)
T1C3C 000:245 JLINK_CORE_GetFound()  returns 0x30000FF (0000ms, 0230ms total)
T1C3C 000:245 JLINK_GetDebugInfo(0x100) -- Value=0xE00FF000  returns 0x00 (0000ms, 0230ms total)
T1C3C 000:245 JLINK_GetDebugInfo(0x100) -- Value=0xE00FF000  returns 0x00 (0000ms, 0230ms total)
T1C3C 000:245 JLINK_GetDebugInfo(0x101) -- Value=0xE0041000  returns 0x00 (0000ms, 0230ms total)
T1C3C 000:245 JLINK_GetDebugInfo(0x102) -- Value=0x00000000  returns 0x00 (0000ms, 0230ms total)
T1C3C 000:245 JLINK_GetDebugInfo(0x103) -- Value=0xE0040000  returns 0x00 (0000ms, 0230ms total)
T1C3C 000:245 JLINK_GetDebugInfo(0x104) -- Value=0xE0000000  returns 0x00 (0000ms, 0230ms total)
T1C3C 000:245 JLINK_GetDebugInfo(0x105) -- Value=0xE0001000  returns 0x00 (0000ms, 0230ms total)
T1C3C 000:245 JLINK_GetDebugInfo(0x106) -- Value=0xE0002000  returns 0x00 (0000ms, 0230ms total)
T1C3C 000:245 JLINK_GetDebugInfo(0x107) -- Value=0xE000E000  returns 0x00 (0000ms, 0230ms total)
T1C3C 000:245 JLINK_GetDebugInfo(0x10C) -- Value=0xE000EDF0  returns 0x00 (0000ms, 0230ms total)
T1C3C 000:245 JLINK_ReadMemU32(0xE000ED00, 0x0001 Items, ...) -- CPU is running -- CPU_ReadMem(4 bytes @ 0xE000ED00) - Data: 31 C2 1F 41  returns 0x01 (0001ms, 0231ms total)
T1C3C 000:246 JLINK_SetResetType(JLINKARM_RESET_TYPE_NORMAL)  returns JLINKARM_RESET_TYPE_NORMAL (0000ms, 0231ms total)
T1C3C 000:246 JLINK_Reset() -- CPU is running -- CPU_WriteMem(4 bytes @ 0xE000EDF0) -- CPU is running -- CPU_WriteMem(4 bytes @ 0xE000EDFC) >0x35 TIF> -- CPU is running -- CPU_WriteMem(4 bytes @ 0xE000ED0C) -- CPU is running -- CPU_ReadMem(4 bytes @ 0xE000EDF0) -- CPU is running -- CPU_ReadMem(4 bytes @ 0xE000EDF0) -- CPU is running -- CPU_WriteMem(4 bytes @ 0xE000EDF0) -- CPU is running -- CPU_WriteMem(4 bytes @ 0xE000EDFC) -- CPU is running -- CPU_ReadMem(4 bytes @ 0xE000EDF0)
 -- CPU_WriteMem(4 bytes @ 0xE0002000) -- CPU_ReadMem(4 bytes @ 0xE000EDFC) -- CPU_ReadMem(4 bytes @ 0xE0001000) (0018ms, 0249ms total)
T1C3C 000:264 JLINK_ReadReg(R15 (PC))  returns 0x08000144 (0000ms, 0249ms total)
T1C3C 000:264 JLINK_ReadReg(XPSR)  returns 0x01000000 (0000ms, 0249ms total)
T1C3C 000:264 JLINK_Halt()  returns 0x00 (0000ms, 0249ms total)
T1C3C 000:264 JLINK_IsHalted()  returns TRUE (0000ms, 0249ms total)
T1C3C 000:264 JLINK_ReadMemU32(0xE000EDF0, 0x0001 Items, ...) -- CPU_ReadMem(4 bytes @ 0xE000EDF0) - Data: 03 00 03 00  returns 0x01 (0001ms, 0250ms total)
T1C3C 000:265 JLINK_WriteU32(0xE000EDF0, 0xA05F0003) -- CPU_WriteMem(4 bytes @ 0xE000EDF0)  returns 0x00 (0000ms, 0250ms total)
T1C3C 000:265 JLINK_WriteU32(0xE000EDFC, 0x01000000) -- CPU_WriteMem(4 bytes @ 0xE000EDFC)  returns 0x00 (0001ms, 0251ms total)
T1C3C 000:266 JLINK_GetHWStatus(...)  returns 0x00 (0000ms, 0251ms total)
T1C3C 000:266 JLINK_GetNumBPUnits(Type = 0xFFFFFF00)  returns 0x06 (0000ms, 0251ms total)
T1C3C 000:266 JLINK_GetNumBPUnits(Type = 0xF0)  returns 0x2000 (0000ms, 0251ms total)
T1C3C 000:266 JLINK_GetNumWPUnits()  returns 0x04 (0000ms, 0251ms total)
T1C3C 000:266 JLINK_GetSpeed()  returns 0xFA0 (0000ms, 0251ms total)
T1C3C 000:266 JLINK_ReadMemU32(0xE000E004, 0x0001 Items, ...) -- CPU_ReadMem(4 bytes @ 0xE000E004) - Data: 01 00 00 00  returns 0x01 (0001ms, 0252ms total)
T1C3C 000:267 JLINK_ReadMemU32(0xE000E004, 0x0001 Items, ...) -- CPU_ReadMem(4 bytes @ 0xE000E004) - Data: 01 00 00 00  returns 0x01 (0000ms, 0252ms total)
T1C3C 000:267 JLINK_WriteMem(0xE0001000, 0x001C Bytes, ...) - Data: 01 00 00 00 00 00 00 00 00 00 00 00 00 00 00 00 ... -- CPU_WriteMem(28 bytes @ 0xE0001000)  returns 0x1C (0002ms, 0254ms total)
T1C3C 000:269 JLINK_ReadMem (0xE0001000, 0x001C Bytes, ...) -- CPU_ReadMem(28 bytes @ 0xE0001000) - Data: 01 00 00 40 00 00 00 00 00 00 00 00 00 00 00 00 ...  returns 0x00 (0000ms, 0254ms total)
T1C3C 000:269 JLINK_ReadReg(R15 (PC))  returns 0x08000144 (0000ms, 0254ms total)
T1C3C 000:269 JLINK_ReadReg(XPSR)  returns 0x01000000 (0000ms, 0254ms total)
T1C3C 000:363 JLINK_SetResetType(JLINKARM_RESET_TYPE_NORMAL)  returns JLINKARM_RESET_TYPE_NORMAL (0000ms, 0254ms total)
T1C3C 000:363 JLINK_Reset() -- CPU_WriteMem(4 bytes @ 0xE000EDF0) -- CPU_WriteMem(4 bytes @ 0xE000EDFC) >0x35 TIF> -- CPU_WriteMem(4 bytes @ 0xE000ED0C) -- CPU_ReadMem(4 bytes @ 0xE000EDF0) -- CPU_ReadMem(4 bytes @ 0xE000EDF0) -- CPU_WriteMem(4 bytes @ 0xE000EDF0) -- CPU_WriteMem(4 bytes @ 0xE000EDFC) -- CPU is running -- CPU_ReadMem(4 bytes @ 0xE000EDF0) -- CPU_WriteMem(4 bytes @ 0xE0002000) -- CPU_ReadMem(4 bytes @ 0xE000EDFC) -- CPU_ReadMem(4 bytes @ 0xE0001000) (0019ms, 0273ms total)
T1C3C 000:382 JLINK_ReadReg(R15 (PC))  returns 0x08000144 (0000ms, 0273ms total)
T1C3C 000:382 JLINK_ReadReg(XPSR)  returns 0x01000000 (0000ms, 0273ms total)
T1C3C 000:383 JLINK_ReadMem (0x08000144, 0x003C Bytes, ...) -- CPU_ReadMem(64 bytes @ 0x08000140) -- Updating C cache (64 bytes @ 0x08000140) -- Read from C cache (60 bytes @ 0x08000144) - Data: 06 48 80 47 06 48 00 47 FE E7 FE E7 FE E7 FE E7 ...  returns 0x00 (0001ms, 0274ms total)
T1C3C 000:486 JLINK_ReadMem (0x40020000, 0x0004 Bytes, ...) -- CPU_ReadMem(4 bytes @ 0x40020000) - Data: 00 00 00 00  returns 0x00 (0001ms, 0275ms total)
T1C3C 000:487 JLINK_ReadMem (0x40020008, 0x000C Bytes, ...) -- CPU_ReadMem(12 bytes @ 0x40020008) - Data: 00 00 00 00 00 00 00 00 00 00 00 00  returns 0x00 (0001ms, 0276ms total)
T1C3C 000:488 JLINK_ReadMem (0x40020014, 0x0004 Bytes, ...) -- CPU_ReadMem(4 bytes @ 0x40020014) - Data: 00 00 00 00  returns 0x00 (0000ms, 0276ms total)
T1C3C 000:488 JLINK_ReadMem (0x4002001C, 0x000C Bytes, ...) -- CPU_ReadMem(12 bytes @ 0x4002001C) - Data: 00 00 00 00 00 00 00 00 00 00 00 00  returns 0x00 (0001ms, 0277ms total)
T1C3C 000:489 JLINK_ReadMem (0x40020028, 0x0004 Bytes, ...) -- CPU_ReadMem(4 bytes @ 0x40020028) - Data: 00 00 00 00  returns 0x00 (0000ms, 0277ms total)
T1C3C 000:489 JLINK_ReadMem (0x40020030, 0x000C Bytes, ...) -- CPU_ReadMem(12 bytes @ 0x40020030) - Data: 00 00 00 00 00 00 00 00 00 00 00 00  returns 0x00 (0001ms, 0278ms total)
T1C3C 000:490 JLINK_ReadMem (0x4002003C, 0x0004 Bytes, ...) -- CPU_ReadMem(4 bytes @ 0x4002003C) - Data: 00 00 00 00  returns 0x00 (0001ms, 0279ms total)
T1C3C 000:491 JLINK_ReadMem (0x40020044, 0x000C Bytes, ...) -- CPU_ReadMem(12 bytes @ 0x40020044) - Data: 00 00 00 00 00 00 00 00 00 00 00 00  returns 0x00 (0000ms, 0279ms total)
T1C3C 000:491 JLINK_ReadMem (0x40020050, 0x0004 Bytes, ...) -- CPU_ReadMem(4 bytes @ 0x40020050) - Data: 00 00 00 00  returns 0x00 (0001ms, 0280ms total)
T1C3C 000:492 JLINK_ReadMem (0x40020058, 0x000C Bytes, ...) -- CPU_ReadMem(12 bytes @ 0x40020058) - Data: 00 00 00 00 00 00 00 00 00 00 00 00  returns 0x00 (0000ms, 0280ms total)
T1C3C 000:492 JLINK_ReadMem (0x40020064, 0x0004 Bytes, ...) -- CPU_ReadMem(4 bytes @ 0x40020064) - Data: 00 00 00 00  returns 0x00 (0001ms, 0281ms total)
T1C3C 000:493 JLINK_ReadMem (0x4002006C, 0x000C Bytes, ...) -- CPU_ReadMem(12 bytes @ 0x4002006C) - Data: 00 00 00 00 00 00 00 00 00 00 00 00  returns 0x00 (0001ms, 0282ms total)
T1C3C 000:494 JLINK_ReadMem (0x40020078, 0x0004 Bytes, ...) -- CPU_ReadMem(4 bytes @ 0x40020078) - Data: 00 00 00 00  returns 0x00 (0000ms, 0282ms total)
T1C3C 000:494 JLINK_ReadMem (0x40020080, 0x000C Bytes, ...) -- CPU_ReadMem(12 bytes @ 0x40020080) - Data: 00 00 00 00 00 00 00 00 00 00 00 00  returns 0x00 (0001ms, 0283ms total)
T1C3C 000:495 JLINK_ReadMem (0x4002008C, 0x0004 Bytes, ...) -- CPU_ReadMem(4 bytes @ 0x4002008C) - Data: 00 00 00 00  returns 0x00 (0000ms, 0283ms total)
T02C8 001:817 JLINK_SetBPEx(Addr = 0x08002488, Type = 0xFFFFFFF2)  returns 0x00000001 (0000ms, 0283ms total)
T02C8 001:817 JLINK_Go() -- CPU_WriteMem(4 bytes @ 0xE0002000) -- CPU_ReadMem(4 bytes @ 0xE0001000) -- CPU_WriteMem(4 bytes @ 0xE0002008) -- CPU_WriteMem(4 bytes @ 0xE000200C) -- CPU_WriteMem(4 bytes @ 0xE0002010) -- CPU_WriteMem(4 bytes @ 0xE0002014) -- CPU_WriteMem(4 bytes @ 0xE0002018) -- CPU_WriteMem(4 bytes @ 0xE000201C) -- CPU_WriteMem(4 bytes @ 0xE0001004) (0005ms, 0288ms total)
T02C8 001:923 JLINK_IsHalted()  returns TRUE (0003ms, 0291ms total)
T02C8 001:926 JLINK_Halt()  returns 0x00 (0000ms, 0288ms total)
T02C8 001:926 JLINK_IsHalted()  returns TRUE (0000ms, 0288ms total)
T02C8 001:926 JLINK_IsHalted()  returns TRUE (0000ms, 0288ms total)
T02C8 001:926 JLINK_IsHalted()  returns TRUE (0000ms, 0288ms total)
T02C8 001:926 JLINK_ReadReg(R15 (PC))  returns 0x08002488 (0000ms, 0288ms total)
T02C8 001:926 JLINK_ReadReg(XPSR)  returns 0x61000000 (0000ms, 0288ms total)
T02C8 001:926 JLINK_ClrBPEx(BPHandle = 0x00000001)  returns 0x00 (0000ms, 0288ms total)
T02C8 001:926 JLINK_ReadMemU32(0xE000ED30, 0x0001 Items, ...) -- CPU_ReadMem(4 bytes @ 0xE000ED30) - Data: 03 00 00 00  returns 0x01 (0000ms, 0288ms total)
T02C8 001:926 JLINK_ReadMemU32(0xE0001028, 0x0001 Items, ...) -- CPU_ReadMem(4 bytes @ 0xE0001028) - Data: 00 00 00 00  returns 0x01 (0001ms, 0289ms total)
T02C8 001:927 JLINK_ReadMemU32(0xE0001038, 0x0001 Items, ...) -- CPU_ReadMem(4 bytes @ 0xE0001038) - Data: 00 02 00 00  returns 0x01 (0000ms, 0289ms total)
T02C8 001:927 JLINK_ReadMemU32(0xE0001048, 0x0001 Items, ...) -- CPU_ReadMem(4 bytes @ 0xE0001048) - Data: 00 00 00 00  returns 0x01 (0001ms, 0290ms total)
T02C8 001:928 JLINK_ReadMemU32(0xE0001058, 0x0001 Items, ...) -- CPU_ReadMem(4 bytes @ 0xE0001058) - Data: 00 00 00 00  returns 0x01 (0000ms, 0290ms total)
T02C8 001:928 JLINK_ReadReg(R0)  returns 0x08002489 (0000ms, 0290ms total)
T02C8 001:928 JLINK_ReadReg(R1)  returns 0x20000690 (0000ms, 0290ms total)
T02C8 001:928 JLINK_ReadReg(R2)  returns 0x00000000 (0000ms, 0290ms total)
T02C8 001:928 JLINK_ReadReg(R3)  returns 0x08002479 (0000ms, 0290ms total)
T02C8 001:928 JLINK_ReadReg(R4)  returns 0x08002680 (0000ms, 0290ms total)
T02C8 001:928 JLINK_ReadReg(R5)  returns 0x08002680 (0000ms, 0290ms total)
T02C8 001:928 JLINK_ReadReg(R6)  returns 0x00000000 (0000ms, 0290ms total)
T02C8 001:928 JLINK_ReadReg(R7)  returns 0x00000000 (0000ms, 0290ms total)
T02C8 001:928 JLINK_ReadReg(R8)  returns 0x00000000 (0000ms, 0290ms total)
T02C8 001:928 JLINK_ReadReg(R9)  returns 0x20000160 (0000ms, 0290ms total)
T02C8 001:928 JLINK_ReadReg(R10)  returns 0x00000000 (0000ms, 0290ms total)
T02C8 001:928 JLINK_ReadReg(R11)  returns 0x00000000 (0000ms, 0290ms total)
T02C8 001:928 JLINK_ReadReg(R12)  returns 0x00000000 (0000ms, 0290ms total)
T02C8 001:929 JLINK_ReadReg(R13 (SP))  returns 0x20000690 (0000ms, 0290ms total)
T02C8 001:929 JLINK_ReadReg(R14)  returns 0x08000185 (0000ms, 0290ms total)
T02C8 001:929 JLINK_ReadReg(R15 (PC))  returns 0x08002488 (0000ms, 0290ms total)
T02C8 001:929 JLINK_ReadReg(XPSR)  returns 0x61000000 (0000ms, 0290ms total)
T02C8 001:929 JLINK_ReadReg(MSP)  returns 0x20000690 (0000ms, 0290ms total)
T02C8 001:929 JLINK_ReadReg(PSP)  returns 0x20001000 (0000ms, 0290ms total)
T02C8 001:929 JLINK_ReadReg(CFBP)  returns 0x00000000 (0000ms, 0290ms total)
T1C3C 001:934 JLINK_ReadMem (0x40020000, 0x0004 Bytes, ...) -- CPU_ReadMem(4 bytes @ 0x40020000) - Data: 00 00 00 00  returns 0x00 (0000ms, 0290ms total)
T1C3C 001:934 JLINK_ReadMem (0x40020008, 0x000C Bytes, ...) -- CPU_ReadMem(12 bytes @ 0x40020008) - Data: 00 00 00 00 00 00 00 00 00 00 00 00  returns 0x00 (0001ms, 0291ms total)
T1C3C 001:935 JLINK_ReadMem (0x40020014, 0x0004 Bytes, ...) -- CPU_ReadMem(4 bytes @ 0x40020014) - Data: 00 00 00 00  returns 0x00 (0000ms, 0291ms total)
T1C3C 001:935 JLINK_ReadMem (0x4002001C, 0x000C Bytes, ...) -- CPU_ReadMem(12 bytes @ 0x4002001C) - Data: 00 00 00 00 00 00 00 00 00 00 00 00  returns 0x00 (0001ms, 0292ms total)
T1C3C 001:936 JLINK_ReadMem (0x40020028, 0x0004 Bytes, ...) -- CPU_ReadMem(4 bytes @ 0x40020028) - Data: 00 00 00 00  returns 0x00 (0000ms, 0292ms total)
T1C3C 001:936 JLINK_ReadMem (0x40020030, 0x000C Bytes, ...) -- CPU_ReadMem(12 bytes @ 0x40020030) - Data: 00 00 00 00 00 00 00 00 00 00 00 00  returns 0x00 (0001ms, 0293ms total)
T1C3C 001:937 JLINK_ReadMem (0x4002003C, 0x0004 Bytes, ...) -- CPU_ReadMem(4 bytes @ 0x4002003C) - Data: 00 00 00 00  returns 0x00 (0000ms, 0293ms total)
T1C3C 001:937 JLINK_ReadMem (0x40020044, 0x000C Bytes, ...) -- CPU_ReadMem(12 bytes @ 0x40020044) - Data: 00 00 00 00 00 00 00 00 00 00 00 00  returns 0x00 (0001ms, 0294ms total)
T1C3C 001:938 JLINK_ReadMem (0x40020050, 0x0004 Bytes, ...) -- CPU_ReadMem(4 bytes @ 0x40020050) - Data: 00 00 00 00  returns 0x00 (0000ms, 0294ms total)
T1C3C 001:938 JLINK_ReadMem (0x40020058, 0x000C Bytes, ...) -- CPU_ReadMem(12 bytes @ 0x40020058) - Data: 00 00 00 00 00 00 00 00 00 00 00 00  returns 0x00 (0001ms, 0295ms total)
T1C3C 001:939 JLINK_ReadMem (0x40020064, 0x0004 Bytes, ...) -- CPU_ReadMem(4 bytes @ 0x40020064) - Data: 00 00 00 00  returns 0x00 (0000ms, 0295ms total)
T1C3C 001:939 JLINK_ReadMem (0x4002006C, 0x000C Bytes, ...) -- CPU_ReadMem(12 bytes @ 0x4002006C) - Data: 00 00 00 00 00 00 00 00 00 00 00 00  returns 0x00 (0001ms, 0296ms total)
T1C3C 001:940 JLINK_ReadMem (0x40020078, 0x0004 Bytes, ...) -- CPU_ReadMem(4 bytes @ 0x40020078) - Data: 00 00 00 00  returns 0x00 (0000ms, 0296ms total)
T1C3C 001:940 JLINK_ReadMem (0x40020080, 0x000C Bytes, ...) -- CPU_ReadMem(12 bytes @ 0x40020080) - Data: 00 00 00 00 00 00 00 00 00 00 00 00  returns 0x00 (0001ms, 0297ms total)
T1C3C 001:941 JLINK_ReadMem (0x4002008C, 0x0004 Bytes, ...) -- CPU_ReadMem(4 bytes @ 0x4002008C) - Data: 00 00 00 00  returns 0x00 (0000ms, 0297ms total)
T02C8 003:977 JLINK_Go() -- CPU_ReadMem(4 bytes @ 0xE0001000) -- CPU_WriteMem(4 bytes @ 0xE0002008) (0002ms, 0299ms total)
T02C8 004:080 JLINK_IsHalted()  returns FALSE (0000ms, 0299ms total)
T02C8 004:181 JLINK_IsHalted()  returns FALSE (0000ms, 0299ms total)
T02C8 004:283 JLINK_IsHalted()  returns FALSE (0000ms, 0299ms total)
T02C8 004:384 JLINK_IsHalted()  returns FALSE (0000ms, 0299ms total)
T02C8 004:485 JLINK_IsHalted()  returns FALSE (0000ms, 0299ms total)
T02C8 004:587 JLINK_ReadMemU32(0xE0001004, 0x0001 Items, ...) -- CPU is running -- CPU_ReadMem(4 bytes @ 0xE0001004) - Data: D1 C6 9B 02  returns 0x01 (0000ms, 0299ms total)
T1C3C 004:587 JLINK_ReadMem (0x40020000, 0x0004 Bytes, ...) -- CPU is running -- CPU_ReadMem(4 bytes @ 0x40020000) - Data: 00 00 00 00  returns 0x00 (0001ms, 0300ms total)
T1C3C 004:588 JLINK_ReadMem (0x40020008, 0x000C Bytes, ...) -- CPU is running -- CPU_ReadMem(12 bytes @ 0x40020008) - Data: 00 00 00 00 00 00 00 00 00 00 00 00  returns 0x00 (0001ms, 0301ms total)
T1C3C 004:589 JLINK_ReadMem (0x40020014, 0x0004 Bytes, ...) -- CPU is running -- CPU_ReadMem(4 bytes @ 0x40020014) - Data: 00 00 00 00  returns 0x00 (0000ms, 0301ms total)
T1C3C 004:589 JLINK_ReadMem (0x4002001C, 0x000C Bytes, ...) -- CPU is running -- CPU_ReadMem(12 bytes @ 0x4002001C) - Data: 90 10 00 00 00 00 00 00 00 00 00 00  returns 0x00 (0001ms, 0302ms total)
T1C3C 004:590 JLINK_ReadMem (0x40020028, 0x0004 Bytes, ...) -- CPU is running -- CPU_ReadMem(4 bytes @ 0x40020028) - Data: 00 00 00 00  returns 0x00 (0000ms, 0302ms total)
T1C3C 004:590 JLINK_ReadMem (0x40020030, 0x000C Bytes, ...) -- CPU is running -- CPU_ReadMem(12 bytes @ 0x40020030) - Data: 80 20 00 00 00 00 00 00 00 00 00 00  returns 0x00 (0001ms, 0303ms total)
T1C3C 004:591 JLINK_ReadMem (0x4002003C, 0x0004 Bytes, ...) -- CPU is running -- CPU_ReadMem(4 bytes @ 0x4002003C) - Data: 00 00 00 00  returns 0x00 (0000ms, 0303ms total)
T1C3C 004:592 JLINK_ReadMem (0x40020044, 0x000C Bytes, ...) -- CPU is running -- CPU_ReadMem(12 bytes @ 0x40020044) - Data: 91 10 00 00 00 00 00 00 04 38 01 40  returns 0x00 (0000ms, 0303ms total)
T1C3C 004:592 JLINK_ReadMem (0x40020050, 0x0004 Bytes, ...) -- CPU is running -- CPU_ReadMem(4 bytes @ 0x40020050) - Data: 00 00 00 20  returns 0x00 (0001ms, 0304ms total)
T1C3C 004:593 JLINK_ReadMem (0x40020058, 0x000C Bytes, ...) -- CPU is running -- CPU_ReadMem(12 bytes @ 0x40020058) - Data: 81 20 00 00 80 00 00 00 04 38 01 40  returns 0x00 (0000ms, 0304ms total)
T1C3C 004:593 JLINK_ReadMem (0x40020064, 0x0004 Bytes, ...) -- CPU is running -- CPU_ReadMem(4 bytes @ 0x40020064) - Data: 80 00 00 20  returns 0x00 (0001ms, 0305ms total)
T1C3C 004:594 JLINK_ReadMem (0x4002006C, 0x000C Bytes, ...) -- CPU is running -- CPU_ReadMem(12 bytes @ 0x4002006C) - Data: 00 00 00 00 00 00 00 00 00 00 00 00  returns 0x00 (0000ms, 0305ms total)
T1C3C 004:594 JLINK_ReadMem (0x40020078, 0x0004 Bytes, ...) -- CPU is running -- CPU_ReadMem(4 bytes @ 0x40020078) - Data: 00 00 00 00  returns 0x00 (0001ms, 0306ms total)
T1C3C 004:595 JLINK_ReadMem (0x40020080, 0x000C Bytes, ...) -- CPU is running -- CPU_ReadMem(12 bytes @ 0x40020080) - Data: 00 00 00 00 00 00 00 00 00 00 00 00  returns 0x00 (0000ms, 0306ms total)
T1C3C 004:595 JLINK_ReadMem (0x4002008C, 0x0004 Bytes, ...) -- CPU is running -- CPU_ReadMem(4 bytes @ 0x4002008C) - Data: 00 00 00 00  returns 0x00 (0001ms, 0307ms total)
T02C8 004:621 JLINK_IsHalted()  returns FALSE (0000ms, 0307ms total)
T02C8 004:722 JLINK_IsHalted()  returns FALSE (0000ms, 0307ms total)
T02C8 004:824 JLINK_IsHalted()  returns FALSE (0000ms, 0307ms total)
T02C8 004:925 JLINK_IsHalted()  returns FALSE (0000ms, 0307ms total)
T02C8 005:026 JLINK_IsHalted()  returns FALSE (0000ms, 0307ms total)
T02C8 005:128 JLINK_ReadMemU32(0xE0001004, 0x0001 Items, ...) -- CPU is running - Data: D1 C6 9B 02  returns 0x01 (0000ms, 0307ms total)
T1C3C 005:129 JLINK_ReadMem (0x40020000, 0x0004 Bytes, ...) -- CPU is running -- CPU_ReadMem(4 bytes @ 0x40020000) - Data: 00 00 00 00  returns 0x00 (0000ms, 0307ms total)
T1C3C 005:129 JLINK_ReadMem (0x40020008, 0x000C Bytes, ...) -- CPU is running -- CPU_ReadMem(12 bytes @ 0x40020008) - Data: 00 00 00 00 00 00 00 00 00 00 00 00  returns 0x00 (0001ms, 0308ms total)
T1C3C 005:130 JLINK_ReadMem (0x40020014, 0x0004 Bytes, ...) -- CPU is running -- CPU_ReadMem(4 bytes @ 0x40020014) - Data: 00 00 00 00  returns 0x00 (0001ms, 0309ms total)
T1C3C 005:131 JLINK_ReadMem (0x4002001C, 0x000C Bytes, ...) -- CPU is running -- CPU_ReadMem(12 bytes @ 0x4002001C) - Data: 90 10 00 00 00 00 00 00 00 00 00 00  returns 0x00 (0000ms, 0309ms total)
T1C3C 005:131 JLINK_ReadMem (0x40020028, 0x0004 Bytes, ...) -- CPU is running -- CPU_ReadMem(4 bytes @ 0x40020028) - Data: 00 00 00 00  returns 0x00 (0001ms, 0310ms total)
T1C3C 005:132 JLINK_ReadMem (0x40020030, 0x000C Bytes, ...) -- CPU is running -- CPU_ReadMem(12 bytes @ 0x40020030) - Data: 80 20 00 00 00 00 00 00 00 00 00 00  returns 0x00 (0000ms, 0310ms total)
T1C3C 005:132 JLINK_ReadMem (0x4002003C, 0x0004 Bytes, ...) -- CPU is running -- CPU_ReadMem(4 bytes @ 0x4002003C) - Data: 00 00 00 00  returns 0x00 (0001ms, 0311ms total)
T1C3C 005:133 JLINK_ReadMem (0x40020044, 0x000C Bytes, ...) -- CPU is running -- CPU_ReadMem(12 bytes @ 0x40020044) - Data: 91 10 00 00 00 00 00 00 04 38 01 40  returns 0x00 (0000ms, 0311ms total)
T1C3C 005:133 JLINK_ReadMem (0x40020050, 0x0004 Bytes, ...) -- CPU is running -- CPU_ReadMem(4 bytes @ 0x40020050) - Data: 00 00 00 20  returns 0x00 (0001ms, 0312ms total)
T1C3C 005:134 JLINK_ReadMem (0x40020058, 0x000C Bytes, ...) -- CPU is running -- CPU_ReadMem(12 bytes @ 0x40020058) - Data: 81 20 00 00 80 00 00 00 04 38 01 40  returns 0x00 (0001ms, 0313ms total)
T1C3C 005:135 JLINK_ReadMem (0x40020064, 0x0004 Bytes, ...) -- CPU is running -- CPU_ReadMem(4 bytes @ 0x40020064) - Data: 80 00 00 20  returns 0x00 (0000ms, 0313ms total)
T1C3C 005:135 JLINK_ReadMem (0x4002006C, 0x000C Bytes, ...) -- CPU is running -- CPU_ReadMem(12 bytes @ 0x4002006C) - Data: 00 00 00 00 00 00 00 00 00 00 00 00  returns 0x00 (0001ms, 0314ms total)
T1C3C 005:136 JLINK_ReadMem (0x40020078, 0x0004 Bytes, ...) -- CPU is running -- CPU_ReadMem(4 bytes @ 0x40020078) - Data: 00 00 00 00  returns 0x00 (0000ms, 0314ms total)
T1C3C 005:136 JLINK_ReadMem (0x40020080, 0x000C Bytes, ...) -- CPU is running -- CPU_ReadMem(12 bytes @ 0x40020080) - Data: 00 00 00 00 00 00 00 00 00 00 00 00  returns 0x00 (0001ms, 0315ms total)
T1C3C 005:137 JLINK_ReadMem (0x4002008C, 0x0004 Bytes, ...) -- CPU is running -- CPU_ReadMem(4 bytes @ 0x4002008C) - Data: 00 00 00 00  returns 0x00 (0000ms, 0315ms total)
T02C8 005:138 JLINK_IsHalted()  returns FALSE (0000ms, 0315ms total)
T02C8 005:239 JLINK_IsHalted()  returns FALSE (0000ms, 0315ms total)
T02C8 005:340 JLINK_IsHalted()  returns FALSE (0000ms, 0315ms total)
T02C8 005:441 JLINK_IsHalted()  returns FALSE (0000ms, 0315ms total)
T02C8 005:543 JLINK_IsHalted()  returns FALSE (0000ms, 0315ms total)
